
**** 01/25/22 16:38:50 ********* PSpice 9.2 (Mar 2000) ******** ID# 1 ********

 ** Profile: "SCHEMATIC1-FinalProject-Part6"  [ x:\orcad\capture\finalproject-mmnazari-9931061\finalproject-part6\simulation\in\final


 ****     CIRCUIT DESCRIPTION


******************************************************************************




** Creating circuit file "finalproject-part6-schematic1-finalproject-part6.sim.cir" 
** WARNING: THIS AUTOMATICALLY GENERATED FILE MAY BE OVERWRITTEN BY SUBSEQUENT SIMULATIONS

*Libraries: 
* Local Libraries :
* From [PSPICE NETLIST] section of C:\Program Files\Orcad\PSpice\PSpice.ini file:
.lib "nom.lib" 

*Analysis directives: 
.AC DEC 1 0.318 0.318
.PROBE V(*) I(*) W(*) D(*) NOISE(*) 
.INC ".\finalproject-part6-SCHEMATIC1.net" 



**** INCLUDING finalproject-part6-SCHEMATIC1.net ****
* source FINALPROJECT-PART6
X_U30         N00568 0 N000032 N000033 N00238 LM741
V_V6         0 N000033 15
R_R32         0 N00238  1n  
R_R31         N00376 N00568  5k  
R_R30         N00337 N00376  5k  
C_C31         N00568 0  100n  
C_C30         N00376 N00238  470n  
V_V30         N00337 0 DC 0Vdc AC 0.01Vac 
V_V5         N000032 0 15

**** RESUMING finalproject-part6-schematic1-finalproject-part6.sim.cir ****
.END

**** 01/25/22 16:38:50 ********* PSpice 9.2 (Mar 2000) ******** ID# 1 ********

 ** Profile: "SCHEMATIC1-FinalProject-Part6"  [ x:\orcad\capture\finalproject-mmnazari-9931061\finalproject-part6\simulation\in\final


 ****     Diode MODEL PARAMETERS


******************************************************************************




               X_U30.x_lm741.dx 
          IS  800.000000E-18 
          RS    1            


               X_U30.x_lm741.dy 
          IS  800.000000E-18 
          RS    1.000000E-03 
         CJO   10.000000E-12 


**** 01/25/22 16:38:50 ********* PSpice 9.2 (Mar 2000) ******** ID# 1 ********

 ** Profile: "SCHEMATIC1-FinalProject-Part6"  [ x:\orcad\capture\finalproject-mmnazari-9931061\finalproject-part6\simulation\in\final


 ****     BJT MODEL PARAMETERS


******************************************************************************




               X_U30.x_lm741.qx 
               NPN             
          IS  800.000000E-18 
          BF   93.75         
          NF    1            
          BR    1            
          NR    1            
          CN    2.42         
           D     .87         


**** 01/25/22 16:38:50 ********* PSpice 9.2 (Mar 2000) ******** ID# 1 ********

 ** Profile: "SCHEMATIC1-FinalProject-Part6"  [ x:\orcad\capture\finalproject-mmnazari-9931061\finalproject-part6\simulation\in\final


 ****     SMALL SIGNAL BIAS SOLUTION       TEMPERATURE =   27.000 DEG C


******************************************************************************



 NODE   VOLTAGE     NODE   VOLTAGE     NODE   VOLTAGE     NODE   VOLTAGE


(N00238)-40.49E-12 (N00337)    0.0000 (N00376)-394.7E-06 (N00568)-789.5E-06     

(N000032)   15.0000                   (N000033)  -15.0000                       

(X_U30.x_lm741.6)     .0145           (X_U30.x_lm741.7)   -2.0246               

(X_U30.x_lm741.8)   -2.0246           (X_U30.x_lm741.9)    0.0000               

(X_U30.x_lm741.10)    -.6081          (X_U30.x_lm741.11)   14.9600              

(X_U30.x_lm741.12)   14.9610          (X_U30.x_lm741.13)    -.5941              

(X_U30.x_lm741.14)    -.5943          (X_U30.x_lm741.53)   14.0000              

(X_U30.x_lm741.54)  -14.0000          (X_U30.x_lm741.90)  -40.4920              

(X_U30.x_lm741.91)   40.0000          (X_U30.x_lm741.92)  -40.0000              

(X_U30.x_lm741.99)    0.0000          




    VOLTAGE SOURCE CURRENTS
    NAME         CURRENT

    V_V6        -1.667E-03
    V_V30       -7.895E-08
    V_V5        -1.667E-03
    X_U30.x_lm741.vb   1.449E-07
    X_U30.x_lm741.vc   1.400E-11
    X_U30.x_lm741.ve   1.455E-11
    X_U30.x_lm741.vlim  -4.049E-02
    X_U30.x_lm741.vlp  -8.049E-11
    X_U30.x_lm741.vln   1.476E-07

    TOTAL POWER DISSIPATION   5.00E-02  WATTS



          JOB CONCLUDED

          TOTAL JOB TIME             .16
