
**** 01/25/22 17:54:31 ********* PSpice 9.2 (Mar 2000) ******** ID# 1 ********

 ** Profile: "SCHEMATIC1-FinalProject-Part5"  [ x:\orcad\capture\finalproject-mmnazari-9931061\finalproject-part5\simulation\finalpro


 ****     CIRCUIT DESCRIPTION


******************************************************************************




** Creating circuit file "finalproject-part5-schematic1-finalproject-part5.sim.cir" 
** WARNING: THIS AUTOMATICALLY GENERATED FILE MAY BE OVERWRITTEN BY SUBSEQUENT SIMULATIONS

*Libraries: 
* Local Libraries :
* From [PSPICE NETLIST] section of C:\Program Files\Orcad\PSpice\PSpice.ini file:
.lib "nom.lib" 

*Analysis directives: 
.AC DEC 10k 0.001 10k
.PROBE V(*) I(*) W(*) D(*) NOISE(*) 
.INC ".\finalproject-part5-SCHEMATIC1.net" 



**** INCLUDING finalproject-part5-SCHEMATIC1.net ****
* source FINALPROJECT-PART5
X_U5         N00568 N00211 N000032 N000033 N00238 LM741
V_V15         0 N000033 15
R_R18         N00211 N00238  10k  
R_R17         0 N00211  27k  
R_R20         N00376 N00568  5k  
R_R19         N00337 N00376  5k  
C_C11         N00568 0  100n  
C_C10         N00376 N00238  470n  
V_V16         N00337 0 DC 0Vdc AC 0.01Vac 
V_V14         N000032 0 15

**** RESUMING finalproject-part5-schematic1-finalproject-part5.sim.cir ****
.END

**** 01/25/22 17:54:31 ********* PSpice 9.2 (Mar 2000) ******** ID# 1 ********

 ** Profile: "SCHEMATIC1-FinalProject-Part5"  [ x:\orcad\capture\finalproject-mmnazari-9931061\finalproject-part5\simulation\finalpro


 ****     Diode MODEL PARAMETERS


******************************************************************************




               X_U5.x_lm741.dx X_U5.x_lm741.dy 
          IS  800.000000E-18  800.000000E-18 
          RS    1               1.000000E-03 
         CJO                   10.000000E-12 


**** 01/25/22 17:54:31 ********* PSpice 9.2 (Mar 2000) ******** ID# 1 ********

 ** Profile: "SCHEMATIC1-FinalProject-Part5"  [ x:\orcad\capture\finalproject-mmnazari-9931061\finalproject-part5\simulation\finalpro


 ****     BJT MODEL PARAMETERS


******************************************************************************




               X_U5.x_lm741.qx 
               NPN             
          IS  800.000000E-18 
          BF   93.75         
          NF    1            
          BR    1            
          NR    1            
          CN    2.42         
           D     .87         


**** 01/25/22 17:54:31 ********* PSpice 9.2 (Mar 2000) ******** ID# 1 ********

 ** Profile: "SCHEMATIC1-FinalProject-Part5"  [ x:\orcad\capture\finalproject-mmnazari-9931061\finalproject-part5\simulation\finalpro


 ****     SMALL SIGNAL BIAS SOLUTION       TEMPERATURE =   27.000 DEG C


******************************************************************************



 NODE   VOLTAGE     NODE   VOLTAGE     NODE   VOLTAGE     NODE   VOLTAGE


(N00211)-777.9E-06 (N00238)-268.5E-06 (N00337)    0.0000 (N00376)-398.6E-06     

(N00568)-797.2E-06 (N000032)   15.0000                   (N000033)  -15.0000    

(X_U5.x_lm741.6) 24.33E-09            (X_U5.x_lm741.7)-265.9E-06                

(X_U5.x_lm741.8)-265.9E-06            (X_U5.x_lm741.9)    0.0000                

(X_U5.x_lm741.10)    -.6085           (X_U5.x_lm741.11)   14.9600               

(X_U5.x_lm741.12)   14.9600           (X_U5.x_lm741.13)    -.5946               

(X_U5.x_lm741.14)    -.5946           (X_U5.x_lm741.53)   14.0000               

(X_U5.x_lm741.54)  -14.0000           (X_U5.x_lm741.90) 50.95E-06               

(X_U5.x_lm741.91)   40.0000           (X_U5.x_lm741.92)  -40.0000               

(X_U5.x_lm741.99)    0.0000           




    VOLTAGE SOURCE CURRENTS
    NAME         CURRENT

    V_V15       -1.667E-03
    V_V16       -7.972E-08
    V_V14       -1.667E-03
    X_U5.x_lm741.vb   2.433E-13
    X_U5.x_lm741.vc   1.400E-11
    X_U5.x_lm741.ve   1.455E-11
    X_U5.x_lm741.vlim   5.095E-08
    X_U5.x_lm741.vlp  -4.000E-11
    X_U5.x_lm741.vln  -4.000E-11

    TOTAL POWER DISSIPATION   5.00E-02  WATTS



          JOB CONCLUDED

          TOTAL JOB TIME           19.05
